LTspice 24.0.12 for Windows
Circuit: * C:\Users\Marcus Serrano\Documents\LTspice\SerranoNAND.asc
Start Time: Fri Dec  6 10:29:11 2024
Warning: Multiple definitions of model "2scr375p" Type: BJT
Warning: Multiple definitions of model "bc857b" Type: BJT
Warning: Multiple definitions of model "bc847c" Type: BJT
Warning: Multiple definitions of model "bc847b" Type: BJT
solver = Normal
Maximum thread count: 12
tnom = 27
temp = 27
method = modified trap
Direct Newton iteration for .op point succeeded.
Semiconductor Device Operating Points:
                        --- Diodes ---
Name:      d1          d2          d3          d4
Model:   1n4001      1n4001      1n4001      1n4001
Id:     -1.41e-08   -1.41e-08    2.22e-04    2.22e-04
Vd:     -3.33e+00   -3.33e+00    4.96e-01    4.96e-01
Req:     1.00e+12    1.00e+12    2.31e+02    2.31e+02
CAP:     8.93e-12    8.93e-12    2.47e-08    2.47e-08

                        --- Bipolar Transistors ---
Name:       q1
Model:    2n3904
Ib:       2.22e-04
Ic:       1.28e-03
Vbe:      6.82e-01
Vbc:      6.55e-01
Vce:      2.66e-02
BetaDC:   5.79e+00
Gm:       5.76e-02
Rpi:      3.27e+03
Rx:       2.00e+01
Ro:       3.06e+01
Cbe:      4.43e-11
Cbc:      8.28e-09
Cjs:      0.00e+00
BetaAC:   1.88e+02
Cbx:      0.00e+00
Ft:       1.10e+06


Total elapsed time: 0.057 seconds.

